 time            vin             i(v1)           l0             
 2.00000000e-05  6.28318529e-04 -3.14159265e-07  2.00000000e+03 
 4.00000000e-05  1.25663705e-03 -6.28318525e-07  2.00000000e+03 
 8.00000000e-05  2.51327402e-03 -1.25663701e-06  2.00000000e+03 
 1.60000000e-04  5.02654740e-03 -2.51327370e-06  2.00000000e+03 
 3.20000000e-04  1.00530897e-02 -5.02654487e-06  2.00000000e+03 
 6.40000000e-04  2.01061388e-02 -1.00530694e-05  2.00000000e+03 
 1.28000000e-03  4.02119525e-02 -2.01059763e-05  2.00000000e+03 
 2.00000000e-03  6.28301994e-02 -3.14150998e-05  2.00000000e+03 
 2.12800000e-03  6.68510998e-02 -3.34255499e-05  2.00000000e+03 
 2.38400000e-03  7.48927681e-02 -3.74463841e-05  2.00000000e+03 
 2.89600000e-03  9.09755027e-02 -4.54877515e-05  2.00000000e+03 
 3.92000000e-03  1.23137981e-01 -6.15689906e-05  2.00000000e+03 
 5.92000000e-03  1.85939401e-01 -9.29697008e-05  2.00000000e+03 
 7.92000000e-03  2.48711460e-01 -1.24355730e-04  2.00000000e+03 
 9.92000000e-03  3.11444243e-01 -1.55722122e-04  2.00000000e+03 
 1.19200000e-02  3.74127847e-01 -1.87063924e-04  2.00000000e+03 
 1.39200000e-02  4.36752371e-01 -2.18376186e-04  2.00000000e+03 
 1.59200000e-02  4.99307926e-01 -2.49653964e-04  2.00000000e+03 
 1.79200000e-02  5.61784636e-01 -2.80892318e-04  2.00000000e+03 
 1.99200000e-02  6.24172633e-01 -3.12086317e-04  2.00000000e+03 
 2.19200000e-02  6.86462065e-01 -3.43231033e-04  2.00000000e+03 
 2.39200000e-02  7.48643098e-01 -3.74321550e-04  2.00000000e+03 
 2.59200000e-02  8.10705911e-01 -4.05352956e-04  2.00000000e+03 
 2.79200000e-02  8.72640704e-01 -4.36320353e-04  2.00000000e+03 
 2.99200000e-02  9.34437698e-01 -4.67218850e-04  2.00000000e+03 
 3.19200000e-02  9.96087132e-01 -4.98043567e-04  2.00000000e+03 
 3.39200000e-02  1.05757927e+00 -5.28789638e-04  2.00000000e+03 
 3.59200000e-02  1.11890441e+00 -5.59452206e-04  2.00000000e+03 
 3.79200000e-02  1.18005286e+00 -5.90026431e-04  2.00000000e+03 
 3.99200000e-02  1.24101496e+00 -6.20507483e-04  2.00000000e+03 
 4.19200000e-02  1.30178110e+00 -6.50890550e-04  2.00000000e+03 
 4.39200000e-02  1.36234167e+00 -6.81170834e-04  2.00000000e+03 
 4.59200000e-02  1.42268710e+00 -7.11343554e-04  2.00000000e+03 
 4.79200000e-02  1.48280788e+00 -7.41403943e-04  2.00000000e+03 
 4.99200000e-02  1.54269451e+00 -7.71347257e-04  2.00000000e+03 
 5.19200000e-02  1.60233753e+00 -7.17329813e-04  2.23375287e+03 
 5.39200000e-02  1.66172752e+00 -1.92323841e-04  8.64025763e+03 
 5.59200000e-02  1.72085510e+00 -6.39758308e-05  2.68985198e+04 
 5.79200000e-02  1.77971094e+00 -3.12476017e-05  5.69551244e+04 
 5.99200000e-02  1.83828575e+00 -1.86146501e-05  9.87547936e+04 
 6.19200000e-02  1.89657027e+00 -1.24577354e-05  1.52240395e+05 
 6.21700000e-02  1.90383496e+00 -1.19111593e-05  1.59836269e+05 
 6.26700000e-02  1.91835024e+00 -1.09375720e-05  1.75390899e+05 
 6.27950000e-02  1.92197611e+00 -1.07124266e-05  1.79415600e+05 
 6.30450000e-02  1.92922428e+00 -1.02861476e-05  1.87555605e+05 
 6.31075000e-02  1.93103558e+00 -1.01754193e-05  1.89624577e+05 
 6.32325000e-02  1.93465729e+00 -9.97913113e-06  1.93785158e+05 
 6.32637500e-02  1.93556253e+00 -9.93244730e-06  1.94833791e+05 
 6.33262500e-02  1.93737279e+00 -9.83649612e-06  1.96936714e+05 
 6.33418750e-02  1.93782531e+00 -9.81304376e-06  1.97464566e+05 
 6.33731250e-02  1.93873029e+00 -9.76558298e-06  1.98521684e+05 
 6.33809375e-02  1.93895652e+00 -9.75384431e-06  1.98786494e+05 
 6.33965625e-02  1.93940897e+00 -9.73023862e-06  1.99316467e+05 
 6.34004688e-02  1.93952208e+00 -9.72436793e-06  1.99449093e+05 
 6.34082813e-02  1.93974830e+00 -9.71259578e-06  1.99714433e+05 
 6.34102344e-02  1.93980485e+00 -9.70966031e-06  1.99780801e+05 
 6.34141406e-02  1.93991796e+00 -9.70378184e-06  1.99913559e+05 
 6.34219531e-02  1.94014417e+00 -9.70066134e-06  2.00001258e+05 
 6.34375781e-02  1.94059657e+00 -9.70291144e-06  2.00001512e+05 
 6.34688281e-02  1.94150132e+00 -9.70743155e-06  2.00001586e+05 
 6.35313281e-02  1.94331060e+00 -9.71647746e-06  2.00001594e+05 
 6.36563281e-02  1.94692825e+00 -9.73456729e-06  2.00001559e+05 
 6.39063281e-02  1.95415995e+00 -9.77073125e-06  2.00001441e+05 
 6.44063281e-02  1.96860886e+00 -9.84298210e-06  2.00001303e+05 
 6.45313281e-02  1.97221806e+00 -9.86104138e-06  2.00001033e+05 
 6.47813281e-02  1.97943281e+00 -9.89712832e-06  2.00000762e+05 
 6.52813281e-02  1.99384763e+00 -9.96920217e-06  2.00000762e+05 
 6.62813281e-02  2.02261810e+00 -1.01130540e-05  2.00000762e+05 
 6.82813281e-02  2.07991835e+00 -1.03995542e-05  2.00000762e+05 
 7.02813281e-02  2.13689016e+00 -1.06844122e-05  2.00000762e+05 
 7.22813281e-02  2.19352452e+00 -1.09675831e-05  2.00000761e+05 
 7.42813281e-02  2.24981251e+00 -1.12490220e-05  2.00000761e+05 
 7.62813281e-02  2.30574522e+00 -1.15286845e-05  2.00000761e+05 
 7.82813281e-02  2.36131383e+00 -1.18065266e-05  2.00000761e+05 
 8.02813281e-02  2.41650956e+00 -1.20825043e-05  2.00000761e+05 
 8.22813281e-02  2.47132370e+00 -1.23565740e-05  2.00000761e+05 
 8.42813281e-02  2.52574758e+00 -1.26286924e-05  2.00000761e+05 
 8.62813281e-02  2.57977262e+00 -1.28988166e-05  2.00000761e+05 
 8.82813281e-02  2.63339029e+00 -1.31669040e-05  2.00000760e+05 
 9.02813281e-02  2.68659211e+00 -1.34329122e-05  2.00000760e+05 
 9.22813281e-02  2.73936969e+00 -1.36967991e-05  2.00000760e+05 
 9.42813281e-02  2.79171469e+00 -1.39585232e-05  2.00000760e+05 
 9.62813281e-02  2.84361884e+00 -1.42180430e-05  2.00000760e+05 
 9.82813281e-02  2.89507396e+00 -1.44753177e-05  2.00000760e+05 
 1.00281328e-01  2.94607191e+00 -1.47303065e-05  2.00000760e+05 
 1.02281328e-01  2.99660464e+00 -1.49829693e-05  2.00000760e+05 
 1.04281328e-01  3.04666417e+00 -1.52332660e-05  2.00000760e+05 
 1.06281328e-01  3.09624260e+00 -1.54811573e-05  2.00000759e+05 
 1.08281328e-01  3.14533209e+00 -1.57266039e-05  2.00000759e+05 
 1.10281328e-01  3.19392490e+00 -1.59695671e-05  2.00000759e+05 
 1.12281328e-01  3.24201336e+00 -1.62100085e-05  2.00000759e+05 
 1.14281328e-01  3.28958986e+00 -1.64478902e-05  2.00000759e+05 
 1.16281328e-01  3.33664690e+00 -1.66831745e-05  2.00000759e+05 
 1.18281328e-01  3.38317704e+00 -1.69158244e-05  2.00000759e+05 
 1.20281328e-01  3.42917294e+00 -1.71458031e-05  2.00000759e+05 
 1.22281328e-01  3.47462733e+00 -1.73730742e-05  2.00000759e+05 
 1.24281328e-01  3.51953304e+00 -1.75976020e-05  2.00000758e+05 
 1.26281328e-01  3.56388297e+00 -1.78193509e-05  2.00000758e+05 
 1.28281328e-01  3.60767013e+00 -1.80382859e-05  2.00000758e+05 
 1.30281328e-01  3.65088759e+00 -1.82543724e-05  2.00000758e+05 
 1.32281328e-01  3.69352854e+00 -1.84675764e-05  2.00000758e+05 
 1.34281328e-01  3.73558623e+00 -1.86778641e-05  2.00000758e+05 
 1.36281328e-01  3.77705403e+00 -1.88852024e-05  2.00000758e+05 
 1.38281328e-01  3.81792540e+00 -1.90895585e-05  2.00000758e+05 
 1.40281328e-01  3.85819386e+00 -1.92909001e-05  2.00000758e+05 
 1.42281328e-01  3.89785308e+00 -1.94891955e-05  2.00000757e+05 
 1.44281328e-01  3.93689677e+00 -1.96844133e-05  2.00000757e+05 
 1.46281328e-01  3.97531879e+00 -1.98765227e-05  2.00000757e+05 
 1.48281328e-01  4.01311305e+00 -2.00654933e-05  2.00000757e+05 
 1.50281328e-01  4.05027360e+00 -2.02512954e-05  2.00000757e+05 
 1.52281328e-01  4.08679457e+00 -2.04338996e-05  2.00000757e+05 
 1.54281328e-01  4.12267018e+00 -2.06132770e-05  2.00000757e+05 
 1.56281328e-01  4.15789477e+00 -2.07893994e-05  2.00000757e+05 
 1.58281328e-01  4.19246279e+00 -2.09622388e-05  2.00000757e+05 
 1.60281328e-01  4.22636877e+00 -2.11317681e-05  2.00000757e+05 
 1.62281328e-01  4.25960735e+00 -2.12979604e-05  2.00000756e+05 
 1.64281328e-01  4.29217329e+00 -2.14607896e-05  2.00000756e+05 
 1.66281328e-01  4.32406145e+00 -2.16202298e-05  2.00000756e+05 
 1.68281328e-01  4.35526679e+00 -2.17762560e-05  2.00000756e+05 
 1.70281328e-01  4.38578438e+00 -2.19288434e-05  2.00000756e+05 
 1.72281328e-01  4.41560941e+00 -2.20779680e-05  2.00000756e+05 
 1.74281328e-01  4.44473716e+00 -2.22236062e-05  2.00000756e+05 
 1.76281328e-01  4.47316303e+00 -2.23657351e-05  2.00000756e+05 
 1.78281328e-01  4.50088254e+00 -2.25043322e-05  2.00000756e+05 
 1.80281328e-01  4.52789131e+00 -2.26393755e-05  2.00000756e+05 
 1.82281328e-01  4.55418507e+00 -2.27708439e-05  2.00000755e+05 
 1.84281328e-01  4.57975967e+00 -2.28987165e-05  2.00000755e+05 
 1.86281328e-01  4.60461108e+00 -2.30229731e-05  2.00000755e+05 
 1.88281328e-01  4.62873536e+00 -2.31435941e-05  2.00000755e+05 
 1.90281328e-01  4.65212872e+00 -2.32605604e-05  2.00000755e+05 
 1.92281328e-01  4.67478745e+00 -2.33738537e-05  2.00000755e+05 
 1.94281328e-01  4.69670797e+00 -2.34834559e-05  2.00000755e+05 
 1.96281328e-01  4.71788683e+00 -2.35893499e-05  2.00000755e+05 
 1.98281328e-01  4.73832068e+00 -2.36915188e-05  2.00000755e+05 
 2.00281328e-01  4.75800630e+00 -2.37899465e-05  2.00000755e+05 
 2.02281328e-01  4.77694057e+00 -2.38846175e-05  2.00000755e+05 
 2.04281328e-01  4.79512051e+00 -2.39755169e-05  2.00000754e+05 
 2.06281328e-01  4.81254324e+00 -2.40626303e-05  2.00000754e+05 
 2.08281328e-01  4.82920602e+00 -2.41459439e-05  2.00000754e+05 
 2.10281328e-01  4.84510621e+00 -2.42254445e-05  2.00000754e+05 
 2.12281328e-01  4.86024130e+00 -2.43011197e-05  2.00000754e+05 
 2.14281328e-01  4.87460890e+00 -2.43729575e-05  2.00000754e+05 
 2.16281328e-01  4.88820674e+00 -2.44409465e-05  2.00000754e+05 
 2.18281328e-01  4.90103268e+00 -2.45050759e-05  2.00000754e+05 
 2.20281328e-01  4.91308469e+00 -2.45653358e-05  2.00000754e+05 
 2.22281328e-01  4.92436087e+00 -2.46217165e-05  2.00000754e+05 
 2.24281328e-01  4.93485943e+00 -2.46742091e-05  2.00000754e+05 
 2.26281328e-01  4.94457872e+00 -2.47228054e-05  2.00000753e+05 
 2.28281328e-01  4.95351721e+00 -2.47674977e-05  2.00000753e+05 
 2.30281328e-01  4.96167347e+00 -2.48082789e-05  2.00000753e+05 
 2.32281328e-01  4.96904624e+00 -2.48451426e-05  2.00000753e+05 
 2.34281328e-01  4.97563433e+00 -2.48780829e-05  2.00000753e+05 
 2.36281328e-01  4.98143671e+00 -2.49070948e-05  2.00000753e+05 
 2.38281328e-01  4.98645246e+00 -2.49321734e-05  2.00000753e+05 
 2.40281328e-01  4.99068080e+00 -2.49533151e-05  2.00000753e+05 
 2.42281328e-01  4.99412105e+00 -2.49705163e-05  2.00000753e+05 
 2.44281328e-01  4.99677267e+00 -2.49837743e-05  2.00000753e+05 
 2.46281328e-01  4.99863524e+00 -2.49930872e-05  2.00000753e+05 
 2.48281328e-01  4.99970847e+00 -2.49984533e-05  2.00000752e+05 
 2.50281328e-01  4.99999219e+00 -2.49998719e-05  2.00000752e+05 
 2.52281328e-01  4.99948635e+00 -2.49973427e-05  2.00000752e+05 
 2.54281328e-01  4.99819103e+00 -2.49908662e-05  2.00000752e+05 
 2.56281328e-01  4.99610644e+00 -2.49804433e-05  2.00000752e+05 
 2.58281328e-01  4.99323291e+00 -2.49660757e-05  2.00000752e+05 
 2.60281328e-01  4.98957089e+00 -2.49477657e-05  2.00000752e+05 
 2.62281328e-01  4.98512096e+00 -2.49255161e-05  2.00000752e+05 
 2.64281328e-01  4.97988382e+00 -2.48993305e-05  2.00000752e+05 
 2.66281328e-01  4.97386030e+00 -2.48692130e-05  2.00000752e+05 
 2.68281328e-01  4.96705135e+00 -2.48351684e-05  2.00000752e+05 
 2.70281328e-01  4.95945804e+00 -2.47972020e-05  2.00000752e+05 
 2.72281328e-01  4.95108158e+00 -2.47553198e-05  2.00000751e+05 
 2.74281328e-01  4.94192328e+00 -2.47095285e-05  2.00000751e+05 
 2.76281328e-01  4.93198460e+00 -2.46598353e-05  2.00000751e+05 
 2.78281328e-01  4.92126710e+00 -2.46062480e-05  2.00000751e+05 
 2.80281328e-01  4.90977247e+00 -2.45487751e-05  2.00000751e+05 
 2.82281328e-01  4.89750254e+00 -2.44874256e-05  2.00000751e+05 
 2.84281328e-01  4.88445923e+00 -2.44222093e-05  2.00000751e+05 
 2.86281328e-01  4.87064461e+00 -2.43531365e-05  2.00000751e+05 
 2.88281328e-01  4.85606085e+00 -2.42802180e-05  2.00000751e+05 
 2.90281328e-01  4.84071027e+00 -2.42034654e-05  2.00000751e+05 
 2.92281328e-01  4.82459529e+00 -2.41228907e-05  2.00000751e+05 
 2.94281328e-01  4.80771845e+00 -2.40385068e-05  2.00000751e+05 
 2.96281328e-01  4.79008241e+00 -2.39503270e-05  2.00000750e+05 
 2.98281328e-01  4.77168996e+00 -2.38583650e-05  2.00000750e+05 
 3.00281328e-01  4.75254400e+00 -2.37626356e-05  2.00000750e+05 
 3.02281328e-01  4.73264757e+00 -2.36631538e-05  2.00000750e+05 
 3.04281328e-01  4.71200379e+00 -2.35599353e-05  2.00000750e+05 
 3.06281328e-01  4.69061594e+00 -2.34529964e-05  2.00000750e+05 
 3.08281328e-01  4.66848738e+00 -2.33423540e-05  2.00000750e+05 
 3.10281328e-01  4.64562162e+00 -2.32280256e-05  2.00000750e+05 
 3.12281328e-01  4.62202225e+00 -2.31100292e-05  2.00000750e+05 
 3.14281328e-01  4.59769302e+00 -2.29883835e-05  2.00000750e+05 
 3.16281328e-01  4.57263775e+00 -2.28631076e-05  2.00000750e+05 
 3.18281328e-01  4.54686042e+00 -2.27342214e-05  2.00000750e+05 
 3.20281328e-01  4.52036508e+00 -2.26017452e-05  2.00000750e+05 
 3.22281328e-01  4.49315592e+00 -2.24656999e-05  2.00000749e+05 
 3.24281328e-01  4.46523725e+00 -2.23261070e-05  2.00000749e+05 
 3.26281328e-01  4.43661346e+00 -2.21829886e-05  2.00000749e+05 
 3.28281328e-01  4.40728907e+00 -2.20363672e-05  2.00000749e+05 
 3.30281328e-01  4.37726873e+00 -2.18862660e-05  2.00000749e+05 
 3.32281328e-01  4.34655716e+00 -2.17327088e-05  2.00000749e+05 
 3.34281328e-01  4.31515923e+00 -2.15757196e-05  2.00000749e+05 
 3.36281328e-01  4.28307987e+00 -2.14153235e-05  2.00000749e+05 
 3.38281328e-01  4.25032417e+00 -2.12515456e-05  2.00000749e+05 
 3.40281328e-01  4.21689730e+00 -2.10844118e-05  2.00000749e+05 
 3.42281328e-01  4.18280453e+00 -2.09139485e-05  2.00000749e+05 
 3.44281328e-01  4.14805124e+00 -2.07401827e-05  2.00000749e+05 
 3.46281328e-01  4.11264293e+00 -2.05631418e-05  2.00000749e+05 
 3.48281328e-01  4.07658519e+00 -2.03828537e-05  2.00000748e+05 
 3.50281328e-01  4.03988370e+00 -2.01993470e-05  2.00000748e+05 
 3.52281328e-01  4.00254427e+00 -2.00126505e-05  2.00000748e+05 
 3.54281328e-01  3.96457279e+00 -1.98227938e-05  2.00000748e+05 
 3.56281328e-01  3.92597526e+00 -1.96298068e-05  2.00000748e+05 
 3.58281328e-01  3.88675778e+00 -1.94337201e-05  2.00000748e+05 
 3.60281328e-01  3.84692653e+00 -1.92345645e-05  2.00000748e+05 
 3.62281328e-01  3.80648780e+00 -1.90323716e-05  2.00000748e+05 
 3.64281328e-01  3.76544799e+00 -1.88271733e-05  2.00000748e+05 
 3.66281328e-01  3.72381357e+00 -1.86190019e-05  2.00000748e+05 
 3.68281328e-01  3.68159111e+00 -1.84078904e-05  2.00000748e+05 
 3.70281328e-01  3.63878729e+00 -1.81938721e-05  2.00000748e+05 
 3.72281328e-01  3.59540887e+00 -1.79769807e-05  2.00000748e+05 
 3.74281328e-01  3.55146268e+00 -1.77572506e-05  2.00000748e+05 
 3.76281328e-01  3.50695568e+00 -1.75347164e-05  2.00000747e+05 
 3.78281328e-01  3.46189489e+00 -1.73094132e-05  2.00000747e+05 
 3.80281328e-01  3.41628743e+00 -1.70813767e-05  2.00000747e+05 
 3.82281328e-01  3.37014049e+00 -1.68506429e-05  2.00000747e+05 
 3.84281328e-01  3.32346137e+00 -1.66172481e-05  2.00000747e+05 
 3.86281328e-01  3.27625744e+00 -1.63812293e-05  2.00000747e+05 
 3.88281328e-01  3.22853615e+00 -1.61426237e-05  2.00000747e+05 
 3.90281328e-01  3.18030504e+00 -1.59014690e-05  2.00000747e+05 
 3.92281328e-01  3.13157171e+00 -1.56578032e-05  2.00000747e+05 
 3.94281328e-01  3.08234388e+00 -1.54116649e-05  2.00000747e+05 
 3.96281328e-01  3.03262931e+00 -1.51630930e-05  2.00000747e+05 
 3.98281328e-01  2.98243585e+00 -1.49121266e-05  2.00000747e+05 
 4.00281328e-01  2.93177143e+00 -1.46588054e-05  2.00000747e+05 
 4.02281328e-01  2.88064405e+00 -1.44031694e-05  2.00000747e+05 
 4.04281328e-01  2.82906179e+00 -1.41452590e-05  2.00000746e+05 
 4.06281328e-01  2.77703278e+00 -1.38851148e-05  2.00000746e+05 
 4.08281328e-01  2.72456524e+00 -1.36227781e-05  2.00000746e+05 
 4.10281328e-01  2.67166747e+00 -1.33582902e-05  2.00000746e+05 
 4.12281328e-01  2.61834781e+00 -1.30916928e-05  2.00000746e+05 
 4.14281328e-01  2.56461468e+00 -1.28230281e-05  2.00000746e+05 
 4.16281328e-01  2.51047656e+00 -1.25523385e-05  2.00000746e+05 
 4.18281328e-01  2.45594202e+00 -1.22796667e-05  2.00000746e+05 
 4.20281328e-01  2.40101965e+00 -1.20050559e-05  2.00000746e+05 
 4.22281328e-01  2.34571814e+00 -1.17285493e-05  2.00000746e+05 
 4.24281328e-01  2.29004620e+00 -1.14501906e-05  2.00000746e+05 
 4.26281328e-01  2.23401265e+00 -1.11700238e-05  2.00000746e+05 
 4.28281328e-01  2.17762631e+00 -1.08880932e-05  2.00000746e+05 
 4.30281328e-01  2.12089611e+00 -1.06044431e-05  2.00000746e+05 
 4.32281328e-01  2.06383099e+00 -1.03191185e-05  2.00000746e+05 
 4.34281328e-01  2.00643997e+00 -1.00321644e-05  2.00000745e+05 
 4.36281328e-01  1.94873210e+00 -9.74362615e-06  2.00000745e+05 
 4.38281328e-01  1.89071651e+00 -9.45354922e-06  2.00000745e+05 
 4.40281328e-01  1.83240236e+00 -9.16197948e-06  2.00000745e+05 
 4.42281328e-01  1.77379884e+00 -8.86896294e-06  2.00000745e+05 
 4.44281328e-01  1.71491523e+00 -8.57454590e-06  2.00000745e+05 
 4.46281328e-01  1.65576080e+00 -8.27877483e-06  2.00000745e+05 
 4.48281328e-01  1.59634492e+00 -7.98169645e-06  2.00000745e+05 
 4.50281328e-01  1.53667695e+00 -7.68335767e-06  2.00000745e+05 
 4.52281328e-01  1.47676632e+00 -7.38380559e-06  2.00000745e+05 
 4.54281328e-01  1.41662250e+00 -7.08308753e-06  2.00000745e+05 
 4.56281328e-01  1.35625497e+00 -6.78125097e-06  2.00000745e+05 
 4.58281328e-01  1.29567328e+00 -6.47834356e-06  2.00000745e+05 
 4.60281328e-01  1.23488698e+00 -6.17441316e-06  2.00000745e+05 
 4.62281328e-01  1.17390568e+00 -5.86950773e-06  2.00000745e+05 
 4.64281328e-01  1.11273901e+00 -5.56367545e-06  2.00000745e+05 
 4.66281328e-01  1.05139662e+00 -5.25696460e-06  2.00000744e+05 
 4.68281328e-01  9.89888208e-01 -4.94942361e-06  2.00000744e+05 
 4.70281328e-01  9.28223479e-01 -4.64110105e-06  2.00000744e+05 
 4.72281328e-01  8.66412172e-01 -4.33204560e-06  2.00000744e+05 
 4.74281328e-01  8.04464048e-01 -4.02230608e-06  2.00000744e+05 
 4.76281328e-01  7.42388891e-01 -3.71193139e-06  2.00000744e+05 
 4.78281328e-01  6.80196502e-01 -3.40097054e-06  2.00000744e+05 
 4.80281328e-01  6.17896701e-01 -3.08947263e-06  2.00000744e+05 
 4.82281328e-01  5.55499328e-01 -2.77748686e-06  2.00000744e+05 
 4.84281328e-01  4.93014235e-01 -2.46506250e-06  2.00000744e+05 
 4.86281328e-01  4.30451289e-01 -2.15224887e-06  2.00000744e+05 
 4.88281328e-01  3.67820370e-01 -1.83909538e-06  2.00000744e+05 
 4.90281328e-01  3.05131368e-01 -1.52565147e-06  2.00000744e+05 
 4.92281328e-01  2.42394182e-01 -1.21196665e-06  2.00000744e+05 
 4.94281328e-01  1.79618720e-01 -8.98090439e-07  2.00000744e+05 
 4.96281328e-01  1.16814893e-01 -5.84072411e-07  2.00000744e+05 
 4.98281328e-01  5.39926200e-02 -2.69962150e-07  2.00000743e+05 
 5.00281328e-01 -8.83817910e-03  4.41907400e-08  2.00000743e+05 
 5.02281328e-01 -7.16675825e-02  3.58336652e-07  2.00000743e+05 
 5.04281328e-01 -1.34485669e-01  6.72425980e-07  2.00000743e+05 
 5.06281328e-01 -1.97282518e-01  9.86409123e-07  2.00000743e+05 
 5.08281328e-01 -2.60048215e-01  1.30023650e-06  2.00000743e+05 
 5.10281328e-01 -3.22772846e-01  1.61385856e-06  2.00000743e+05 
 5.12281328e-01 -3.85446508e-01  1.92722577e-06  2.00000743e+05 
 5.14281328e-01 -4.48059304e-01  2.24028864e-06  2.00000743e+05 
 5.16281328e-01 -5.10601346e-01  2.55299776e-06  2.00000743e+05 
 5.18281328e-01 -5.73062758e-01  2.86530372e-06  2.00000743e+05 
 5.20281328e-01 -6.35433676e-01  3.17715722e-06  2.00000743e+05 
 5.22281328e-01 -6.97704253e-01  3.48850901e-06  2.00000743e+05 
 5.24281328e-01 -7.59864653e-01  3.79930992e-06  2.00000743e+05 
 5.26281328e-01 -8.21905063e-01  4.10951088e-06  2.00000743e+05 
 5.28281328e-01 -8.83815684e-01  4.41906289e-06  2.00000743e+05 
 5.30281328e-01 -9.45586740e-01  4.72791709e-06  2.00000742e+05 
 5.32281328e-01 -1.00720848e+00  5.03602470e-06  2.00000742e+05 
 5.34281328e-01 -1.06867116e+00  5.34333706e-06  2.00000742e+05 
