 time            i(v1)           vin            
 3.00000000e-04 -1.25663657e-07  1.88495448e-02 
 6.00000000e-04 -2.51326867e-07  3.76990225e-02 
 1.20000000e-03 -5.02650163e-07  7.53975093e-02 
 2.40000000e-03 -1.00527175e-06  1.50790732e-01 
 4.80000000e-03 -2.01031491e-06  3.01547176e-01 
 5.40000000e-03 -2.26153550e-06  3.39226912e-01 
 6.60000000e-03 -2.76380978e-06  4.14571385e-01 
 9.00000000e-03 -3.76790305e-06  5.65185345e-01 
 9.07500000e-03 -3.79926905e-06  5.69890138e-01 
 9.22500000e-03 -3.86199640e-06  5.79299345e-01 
 9.52500000e-03 -3.98744217e-06  5.98116205e-01 
 9.60000000e-03 -4.01880582e-06  6.02820091e-01 
 9.61875000e-03 -4.02664051e-06  6.03996042e-01 
 9.65625000e-03 -4.04231913e-06  6.06347918e-01 
 9.73125000e-03 -4.07367679e-06  6.11051568e-01 
 9.88125000e-03 -4.13638941e-06  6.20458462e-01 
 1.01812500e-02 -4.26180357e-06  6.39270587e-01 
 1.07812500e-02 -4.51258601e-06  6.76887956e-01 
 1.19812500e-02 -5.01395493e-06  7.52093300e-01 
 1.43812500e-02 -6.01580917e-06  9.02371448e-01 
 1.91812500e-02 -8.01518632e-06  1.20227804e+00 
 2.87812500e-02 -1.19902590e-05  1.79853900e+00 
 2.88187500e-02 -1.20057106e-05  1.80085672e+00 
 2.88937500e-02 -1.20366114e-05  1.80549187e+00 
 2.90437500e-02 -1.20984058e-05  1.81476095e+00 
 2.93437500e-02 -1.22219675e-05  1.83329428e+00 
 2.99437500e-02 -1.24689743e-05  1.87034134e+00 
 3.11437500e-02 -1.29625132e-05  1.94435518e+00 
 3.35437500e-02 -1.39476119e-05  2.09204705e+00 
 3.83437500e-02 -1.59095471e-05  2.38597018e+00 
 4.79437500e-02 -1.97933079e-05  2.96704086e+00 
 6.71437500e-02 -2.73811709e-05  4.09473258e+00 
 1.05543750e-01 -4.15114350e-05  6.15603022e+00 
 1.65543750e-01 -5.93416558e-05  8.62476131e+00 
 2.25543750e-01 -6.95638036e-05  9.88217031e+00 
 2.85543750e-01 -6.98907446e-05  9.75165785e+00 
 3.45543750e-01 -5.97186062e-05  8.25155404e+00 
 4.05543750e-01 -4.05874837e-05  5.59254398e+00 
 4.65543750e-01 -1.55898407e-05  2.14807773e+00 
 5.25543750e-01  1.22745016e-05 -1.59807964e+00 
 5.85543750e-01  6.33483735e-05 -5.11979148e+00 
 5.93043750e-01  8.06871430e-05 -5.51875128e+00 
 6.08043750e-01  1.60778059e-04 -6.27905328e+00 
 6.10369968e-01  1.90106513e-04 -6.39213382e+00 
 6.15022403e-01  3.00342268e-04 -6.61417448e+00 
 6.16185512e-01  3.52643976e-04 -6.66880890e+00 
 6.18511730e-01  5.44272907e-04 -6.77700636e+00 
 6.19093285e-01  6.31486377e-04 -6.80383041e+00 
 6.20256394e-01  9.32677124e-04 -6.85720563e+00 
 6.20547171e-01  1.06033264e-03 -6.87049232e+00 
 6.21128725e-01  1.46242073e-03 -6.89699686e+00 
 6.21274114e-01  1.61646022e-03 -6.90360862e+00 
 6.21564891e-01  2.04915962e-03 -6.91681486e+00 
 6.21637586e-01  2.19654918e-03 -6.92011281e+00 
 6.21782974e-01  2.56614706e-03 -6.92670438e+00 
 6.21819321e-01  2.67899481e-03 -6.92835137e+00 
 6.21892016e-01  2.93751154e-03 -6.93164427e+00 
 6.21910189e-01  3.01018037e-03 -6.93246726e+00 
 6.21946536e-01  3.16691686e-03 -6.93411299e+00 
 6.21955623e-01  3.20869958e-03 -6.93452436e+00 
 6.21973797e-01  3.29337557e-03 -6.93534705e+00 
 6.22010144e-01  3.48466125e-03 -6.93699214e+00 
 6.22082838e-01  3.49432068e-03 -6.94028124e+00 
 6.22184539e-01  3.49707277e-03 -6.94488031e+00 
 6.22295804e-01  3.49974055e-03 -6.94990869e+00 
 6.22518336e-01  3.50493209e-03 -6.95995526e+00 
 6.22963399e-01  3.51518258e-03 -6.98000756e+00 
 6.23853525e-01  3.53550535e-03 -7.01994825e+00 
 6.25633777e-01  3.57573684e-03 -7.09916964e+00 
 6.29194281e-01  3.65473335e-03 -7.25493794e+00 
 6.36315289e-01  3.80723860e-03 -7.55550609e+00 
 6.50557305e-01  4.08992013e-03 -8.11070249e+00 
 6.79041337e-01  4.55535109e-03 -9.02245990e+00 
 6.85049234e-01  4.63376571e-03 -9.17877438e+00 
 6.97065028e-01  4.77018795e-03 -9.45196558e+00 
 7.21096617e-01  4.95693844e-03 -9.83555027e+00 
 7.43852064e-01  5.03672591e-03 -9.99254008e+00 
 7.68508254e-01  5.00808577e-03 -9.93245843e+00 
 8.02729928e-01  4.76930426e-03 -9.45616415e+00 
 8.62729928e-01  3.83108510e-03 -7.59466928e+00 
 9.22729928e-01  2.35400355e-03 -4.66652569e+00 
 9.82729928e-01  5.46304572e-04 -1.08298243e+00 
 1.04272993e+00 -9.22631158e-05  2.65266250e+00 
 1.10272993e+00 -8.75688038e-05  6.01574886e+00 
 1.10648396e+00 -8.85754090e-05  6.20247720e+00 
 1.11399203e+00 -9.06171562e-05  6.56547995e+00 
 1.11586905e+00 -9.09400080e-05  6.65397893e+00 
 1.11962308e+00 -9.14384185e-05  6.82818823e+00 
 1.12713115e+00 -9.40790208e-05  7.16511575e+00 
 1.13889629e+00 -9.52755853e-05  7.66074335e+00 
 1.15301542e+00 -9.18699504e-05  8.20007564e+00 
 1.18125368e+00 -8.27633415e-05  9.08152846e+00 
 1.21138761e+00 -7.58698289e-05  9.70714551e+00 
 1.21544299e+00 -7.51157801e-05  9.76520165e+00 
 1.22355377e+00 -7.37017478e-05  9.86226068e+00 
 1.23977531e+00 -7.36728848e-05  9.97937087e+00 
 1.26099835e+00 -7.36489377e-05  9.97613221e+00 
 1.28752826e+00 -7.17822866e-05  9.72328447e+00 
 1.34058809e+00 -6.21860414e-05  8.42342242e+00 
 1.40058809e+00 -4.31723531e-05  5.84791863e+00 
 1.46058809e+00 -1.80952333e-05  2.45109204e+00 
 1.52058809e+00  9.87531199e-06 -1.28998314e+00 
 1.58058809e+00  5.79330969e-05 -4.84988402e+00 
 1.58808809e+00  7.17140419e-05 -5.25645565e+00 
 1.60308809e+00  1.23373947e-04 -6.03371019e+00 
 1.60683809e+00  1.49871388e-04 -6.21991526e+00 
 1.61433809e+00  2.63553834e-04 -6.58186518e+00 
 1.61621309e+00  3.28609711e-04 -6.67010001e+00 
 1.61996309e+00  6.69118937e-04 -6.84378033e+00 
 1.62051289e+00  7.94330920e-04 -6.86892717e+00 
 1.62161249e+00  1.28020229e-03 -6.91897464e+00 
 1.62188739e+00  1.51545308e-03 -6.93143500e+00 
 1.62243720e+00  2.40725808e-03 -6.95629364e+00 
 1.62303920e+00  3.52658884e-03 -6.98341720e+00 
 1.62368016e+00  3.54195968e-03 -7.01218654e+00 
 1.62419593e+00  3.55395819e-03 -7.03525394e+00 
 1.62487459e+00  3.56955177e-03 -7.06549385e+00 
 1.62623191e+00  3.60049781e-03 -7.12558771e+00 
 1.62894654e+00  3.66165300e-03 -7.24421634e+00 
 1.63437581e+00  3.78101630e-03 -7.47511726e+00 
 1.64523435e+00  4.00864732e-03 -7.91056658e+00 
 1.66695144e+00  4.41223032e-03 -8.66918647e+00 
 1.67006200e+00  4.46222303e-03 -8.76494299e+00 
 1.67628314e+00  4.55585719e-03 -8.94637697e+00 
 1.68872542e+00  4.71180431e-03 -9.26798595e+00 
 1.71360996e+00  4.92279431e-03 -9.73974333e+00 
 1.73494307e+00  5.02341028e-03 -9.95528236e+00 
 1.75846496e+00  5.03883722e-03 -9.98585910e+00 
 1.78519898e+00  4.92306719e-03 -9.75643271e+00 
 1.81921852e+00  4.57622260e-03 -9.06906801e+00 
 1.87921852e+00  3.47221850e-03 -6.88118226e+00 
 1.93921852e+00  1.88055457e-03 -3.72685492e+00 
 1.99921852e+00  2.47751742e-05 -4.91018789e-02 
 2.05921852e+00 -9.68888846e-05  3.63554738e+00 
 2.11921852e+00 -9.26075142e-05  6.80959481e+00 
 2.16001524e+00 -9.51036956e-05  8.44379222e+00 
 2.19805288e+00 -8.11940790e-05  9.47204882e+00 
 2.20277051e+00 -7.98751372e-05  9.56291404e+00 
 2.21220578e+00 -7.75736652e-05  9.71936698e+00 
 2.23107631e+00 -7.37397022e-05  9.92939594e+00 
 2.25939520e+00 -7.37594347e-05  9.98258132e+00 
 2.28737132e+00 -7.18604918e-05  9.72558347e+00 
 2.32156152e+00 -6.65440762e-05  9.00606111e+00 
 2.38156152e+00 -5.00490021e-05  6.77362126e+00 
 2.44156152e+00 -2.65246963e-05  3.58984644e+00 
 2.50156152e+00  7.24926190e-07 -9.81116535e-02 
 2.56156152e+00  3.37612755e-05 -3.77229025e+00 
 2.62156152e+00  7.16013879e-04 -6.91666190e+00 
 2.65621552e+00  4.21640320e-03 -8.31349247e+00 
 2.69008939e+00  4.72647519e-03 -9.29983089e+00 
 2.69495332e+00  4.77522042e-03 -9.40781369e+00 
 2.70468118e+00  4.86012563e-03 -9.59732876e+00 
 2.72413690e+00  4.97940551e-03 -9.86825471e+00 
 2.74363094e+00  5.04043852e-03 -9.99199388e+00 
 2.76403893e+00  5.02504546e-03 -9.96112091e+00 
 2.79036468e+00  4.88339198e-03 -9.68010788e+00 
 2.84301617e+00  4.20748403e-03 -8.34022382e+00 
 2.90301617e+00  2.88739080e-03 -5.72348816e+00 
 2.96301617e+00  1.16177204e-03 -2.30290560e+00 
 3.00000000e+00  3.62407700e-18 -7.34788079e-15 
